time(s), maxVolt(V), minVolt(V), maxCurr(A) minCurr(A), maxPower(W), minPower(W), maxApPower(VA), minApPower(VA), maxFreq(Hz), minFreq(Hz), AvgPower (W), Energy(Kwh)
200 MASTER: 01 04 00 00 00 02 71 CB    241
384  SLAVE: 01 04 04 43 64 33 33 FB 3A 385
228.20
0
427 MASTER: 01 04 00 06 00 02 91 CA    428
604  SLAVE: 01 04 04 3E 2E 14 7B D9 46 605
0.17
0
647 MASTER: 01 04 00 0C 00 02 B1 C8    648
824  SLAVE: 01 04 04 42 0A 66 66 64 74 825
34.60
0
867 MASTER: 01 04 00 48 00 02 F1 DD    868
1037  SLAVE: 01 04 04 3E 90 E5 60 BC F9 1039
0.28
0
1080 MASTER: 01 04 00 46 00 02 90 1E    1081
1258  SLAVE: 01 04 04 42 48 00 00 6F EA 1259
50.00
0
1301 MASTER: 01 04 00 12 00 02 D1 CE    1302
1482  SLAVE: 01 04 04 42 11 FA 24 FD 42 1483
36.49
0
1525 MASTER: 01 04 00 1E 00 02 11 CD    1526
1702  SLAVE: 01 04 04 3F 72 EC E8 1B 05 1703
0.95
0
5200 MASTER: 01 04 00 00 00 02 71 CB    5201
5370  SLAVE: 01 04 04 43 64 00 00 AF DF 5371
228.00
0
5413 MASTER: 01 04 00 06 00 02 91 CA    5414
5581  SLAVE: 01 04 04 3E 2E 14 7B D9 46 5582
0.17
0
5624 MASTER: 01 04 00 0C 00 02 B1 C8    5625
5793  SLAVE: 01 04 04 42 0A 66 66 64 74 5794
34.60
0
5836 MASTER: 01 04 00 48 00 02 F1 DD    5837
6016  SLAVE: 01 04 04 3E 90 E5 60 BC F9 6017
0.28
0
6059 MASTER: 01 04 00 46 00 02 90 1E    6060
6236  SLAVE: 01 04 04 42 48 00 00 6F EA 6237
50.00
0
6279 MASTER: 01 04 00 12 00 02 D1 CE    6280
6459  SLAVE: 01 04 04 42 11 E1 0A 77 AE 6460
36.47
0
6502 MASTER: 01 04 00 1E 00 02 11 CD    6503
6680  SLAVE: 01 04 04 3F 73 69 82 A8 7A 6682
0.95
0
10200 MASTER: 01 04 00 00 00 02 71 CB    10201
10369  SLAVE: 01 04 04 43 63 66 66 B5 94 10371
227.40
0
10413 MASTER: 01 04 00 06 00 02 91 CA    10414
10590  SLAVE: 01 04 04 3E 2E 14 7B D9 46 10591
0.17
0
10633 MASTER: 01 04 00 0C 00 02 B1 C8    10634
10801  SLAVE: 01 04 04 42 0A 66 66 64 74 10803
34.60
0
10844 MASTER: 01 04 00 48 00 02 F1 DD    10845
11023  SLAVE: 01 04 04 3E 90 E5 60 BC F9 11025
0.28
0
11066 MASTER: 01 04 00 46 00 02 90 1E    11067
11243  SLAVE: 01 04 04 42 48 00 00 6F EA 11244
50.00
0
11286 MASTER: 01 04 00 12 00 02 D1 CE    11287
11466  SLAVE: 01 04 04 42 11 89 24 D8 72 11468
36.38
0
11510 MASTER: 01 04 00 1E 00 02 11 CD    11511
11687  SLAVE: 01 04 04 3F 73 9F D2 EF E6 11689
0.95
0
15200 MASTER: 01 04 00 00 00 02 71 CB    15201
15377  SLAVE: 01 04 04 43 63 B3 33 2B 3B 15378
227.70
0
15420 MASTER: 01 04 00 06 00 02 91 CA    15421
15597  SLAVE: 01 04 04 3E 2E 14 7B D9 46 15598
0.17
0
15640 MASTER: 01 04 00 0C 00 02 B1 C8    15641
15817  SLAVE: 01 04 04 42 0A CC CD 5B 6B 15818
34.70
0
15860 MASTER: 01 04 00 48 00 02 F1 DD    15861
16041  SLAVE: 01 04 04 3E 90 E5 60 BC F9 16044
0.28
0
16086 MASTER: 01 04 00 46 00 02 90 1E    16087
16259  SLAVE: 01 04 04 42 48 00 00 6F EA 16260
50.00
0
16302 MASTER: 01 04 00 12 00 02 D1 CE    16303
16484  SLAVE: 01 04 04 42 11 F4 70 F8 DD 16485
36.49
0
16527 MASTER: 01 04 00 1E 00 02 11 CD    16528
16706  SLAVE: 01 04 04 3F 73 7F 4A A7 8C 16707
0.95
0
20,228.2,0.0,0.17,0.00,34.70,0.00,36.40,0.00,50.00,0.00,28.16,0.28
20200 MASTER: 01 04 00 00 00 02 71 CB    20201
20374  SLAVE: 01 04 04 43 63 CC CD 8A 8B 20375
227.80
0